CITIFILE A.01.01
# File generated on Wed Apr 22 13:37:13 2020

NAME VemEngine -DC E:\Github\youtube-simple-simulations\ADS Simulations\28Pins\simulation\28Pins_Project_V1I1_PCB_lib\28%Pins_%Project_%V1%I1_%P%C%B\sipi%Setup\000001\design.out.electric

CONSTANT NBR_OP_PORTS 8

VAR freq MAG 1

DATA Y[1,1] RI
DATA Y[1,2] RI
DATA Y[1,3] RI
DATA Y[1,4] RI
DATA Y[1,5] RI
DATA Y[1,6] RI
DATA Y[1,7] RI
DATA Y[1,8] RI
DATA Y[2,1] RI
DATA Y[2,2] RI
DATA Y[2,3] RI
DATA Y[2,4] RI
DATA Y[2,5] RI
DATA Y[2,6] RI
DATA Y[2,7] RI
DATA Y[2,8] RI
DATA Y[3,1] RI
DATA Y[3,2] RI
DATA Y[3,3] RI
DATA Y[3,4] RI
DATA Y[3,5] RI
DATA Y[3,6] RI
DATA Y[3,7] RI
DATA Y[3,8] RI
DATA Y[4,1] RI
DATA Y[4,2] RI
DATA Y[4,3] RI
DATA Y[4,4] RI
DATA Y[4,5] RI
DATA Y[4,6] RI
DATA Y[4,7] RI
DATA Y[4,8] RI
DATA Y[5,1] RI
DATA Y[5,2] RI
DATA Y[5,3] RI
DATA Y[5,4] RI
DATA Y[5,5] RI
DATA Y[5,6] RI
DATA Y[5,7] RI
DATA Y[5,8] RI
DATA Y[6,1] RI
DATA Y[6,2] RI
DATA Y[6,3] RI
DATA Y[6,4] RI
DATA Y[6,5] RI
DATA Y[6,6] RI
DATA Y[6,7] RI
DATA Y[6,8] RI
DATA Y[7,1] RI
DATA Y[7,2] RI
DATA Y[7,3] RI
DATA Y[7,4] RI
DATA Y[7,5] RI
DATA Y[7,6] RI
DATA Y[7,7] RI
DATA Y[7,8] RI
DATA Y[8,1] RI
DATA Y[8,2] RI
DATA Y[8,3] RI
DATA Y[8,4] RI
DATA Y[8,5] RI
DATA Y[8,6] RI
DATA Y[8,7] RI
DATA Y[8,8] RI
DATA S[1,1] RI
DATA S[1,2] RI
DATA S[1,3] RI
DATA S[1,4] RI
DATA S[1,5] RI
DATA S[1,6] RI
DATA S[1,7] RI
DATA S[1,8] RI
DATA S[2,1] RI
DATA S[2,2] RI
DATA S[2,3] RI
DATA S[2,4] RI
DATA S[2,5] RI
DATA S[2,6] RI
DATA S[2,7] RI
DATA S[2,8] RI
DATA S[3,1] RI
DATA S[3,2] RI
DATA S[3,3] RI
DATA S[3,4] RI
DATA S[3,5] RI
DATA S[3,6] RI
DATA S[3,7] RI
DATA S[3,8] RI
DATA S[4,1] RI
DATA S[4,2] RI
DATA S[4,3] RI
DATA S[4,4] RI
DATA S[4,5] RI
DATA S[4,6] RI
DATA S[4,7] RI
DATA S[4,8] RI
DATA S[5,1] RI
DATA S[5,2] RI
DATA S[5,3] RI
DATA S[5,4] RI
DATA S[5,5] RI
DATA S[5,6] RI
DATA S[5,7] RI
DATA S[5,8] RI
DATA S[6,1] RI
DATA S[6,2] RI
DATA S[6,3] RI
DATA S[6,4] RI
DATA S[6,5] RI
DATA S[6,6] RI
DATA S[6,7] RI
DATA S[6,8] RI
DATA S[7,1] RI
DATA S[7,2] RI
DATA S[7,3] RI
DATA S[7,4] RI
DATA S[7,5] RI
DATA S[7,6] RI
DATA S[7,7] RI
DATA S[7,8] RI
DATA S[8,1] RI
DATA S[8,2] RI
DATA S[8,3] RI
DATA S[8,4] RI
DATA S[8,5] RI
DATA S[8,6] RI
DATA S[8,7] RI
DATA S[8,8] RI
DATA PORTZ[1] RI
DATA PORTZ[2] RI
DATA PORTZ[3] RI
DATA PORTZ[4] RI
DATA PORTZ[5] RI
DATA PORTZ[6] RI
DATA PORTZ[7] RI
DATA PORTZ[8] RI

VAR_LIST_BEGIN
  0
VAR_LIST_END

# Y[1,1]
BEGIN
  42.40747220682496, 0.0
END
# Y[1,2]
BEGIN
  -24.80419343908351, 0.0
END
# Y[1,3]
BEGIN
  -7.846113386015606, 0.0
END
# Y[1,4]
BEGIN
  -9.757165096738818, 0.0
END
# Y[1,5]
BEGIN
  -42.40747220514854, 0.0
END
# Y[1,6]
BEGIN
  42.40747220749337, 0.0
END
# Y[1,7]
BEGIN
  -7.846113386053341, 0.0
END
# Y[1,8]
BEGIN
  -24.80419343902958, 0.0
END
# Y[2,1]
BEGIN
  -24.80402786563454, 0.0
END
# Y[2,2]
BEGIN
  133.9792857894897, 0.0
END
# Y[2,3]
BEGIN
  -78.62255114362205, 0.0
END
# Y[2,4]
BEGIN
  -30.55270726296687, 0.0
END
# Y[2,5]
BEGIN
  24.80402786580358, 0.0
END
# Y[2,6]
BEGIN
  -24.8040278650415, 0.0
END
# Y[2,7]
BEGIN
  -78.62255114360978, 0.0
END
# Y[2,8]
BEGIN
  133.9792857898978, 0.0
END
# Y[3,1]
BEGIN
  -7.846060948880718, 0.0
END
# Y[3,2]
BEGIN
  -78.62255121512044, 0.0
END
# Y[3,3]
BEGIN
  96.13310703168867, 0.0
END
# Y[3,4]
BEGIN
  -9.664495020105543, 0.0
END
# Y[3,5]
BEGIN
  7.846060948934177, 0.0
END
# Y[3,6]
BEGIN
  -7.846060948693125, 0.0
END
# Y[3,7]
BEGIN
  96.13310703128136, 0.0
END
# Y[3,8]
BEGIN
  -78.62255121509283, 0.0
END
# Y[4,1]
BEGIN
  -9.75738339270708, 0.0
END
# Y[4,2]
BEGIN
  -30.552541134245, 0.0
END
# Y[4,3]
BEGIN
  -9.664442501337668, 0.0
END
# Y[4,4]
BEGIN
  49.97436737922283, 0.0
END
# Y[4,5]
BEGIN
  9.757383392773573, 0.0
END
# Y[4,6]
BEGIN
  -9.757383392473791, 0.0
END
# Y[4,7]
BEGIN
  -9.6644425013478, 0.0
END
# Y[4,8]
BEGIN
  -30.55254113422077, 0.0
END
# Y[5,1]
BEGIN
  -42.40747220514937, 0.0
END
# Y[5,2]
BEGIN
  24.80419343925301, 0.0
END
# Y[5,3]
BEGIN
  7.846113386069233, 0.0
END
# Y[5,4]
BEGIN
  9.757165096805501, 0.0
END
# Y[5,5]
BEGIN
  42.40747220543836, 0.0
END
# Y[5,6]
BEGIN
  -42.40747220778318, 0.0
END
# Y[5,7]
BEGIN
  7.846113386106969, 0.0
END
# Y[5,8]
BEGIN
  24.80419343919909, 0.0
END
# Y[6,1]
BEGIN
  42.40747220749265, 0.0
END
# Y[6,2]
BEGIN
  -24.80419343849005, 0.0
END
# Y[6,3]
BEGIN
  -7.846113385827886, 0.0
END
# Y[6,4]
BEGIN
  -9.757165096505366, 0.0
END
# Y[6,5]
BEGIN
  -42.40747220778164, 0.0
END
# Y[6,6]
BEGIN
  42.40747220647873, 0.0
END
# Y[6,7]
BEGIN
  -7.846113385865618, 0.0
END
# Y[6,8]
BEGIN
  -24.80419343843612, 0.0
END
# Y[7,1]
BEGIN
  -7.846060948918259, 0.0
END
# Y[7,2]
BEGIN
  -78.62255121510832, 0.0
END
# Y[7,3]
BEGIN
  96.13310703128136, 0.0
END
# Y[7,4]
BEGIN
  -9.664495020115693, 0.0
END
# Y[7,5]
BEGIN
  7.84606094897172, 0.0
END
# Y[7,6]
BEGIN
  -7.846060948730671, 0.0
END
# Y[7,7]
BEGIN
  96.13310703131694, 0.0
END
# Y[7,8]
BEGIN
  -78.6225512150807, 0.0
END
# Y[8,1]
BEGIN
  -24.80402786558083, 0.0
END
# Y[8,2]
BEGIN
  133.9792857898979, 0.0
END
# Y[8,3]
BEGIN
  -78.62255114359432, 0.0
END
# Y[8,4]
BEGIN
  -30.55270726294259, 0.0
END
# Y[8,5]
BEGIN
  24.80402786574986, 0.0
END
# Y[8,6]
BEGIN
  -24.80402786498779, 0.0
END
# Y[8,7]
BEGIN
  -78.62255114358204, 0.0
END
# Y[8,8]
BEGIN
  133.9792857897921, 0.0
END

# S[1,1]
BEGIN
  0.4286539584176552, 0.0
END
# S[1,2]
BEGIN
  0.1428556462751089, 0.0
END
# S[1,3]
BEGIN
  0.1428475720611573, 0.0
END
# S[1,4]
BEGIN
  0.2856428011822914, 0.0
END
# S[1,5]
BEGIN
  0.57134590119162, 0.0
END
# S[1,6]
BEGIN
  -0.571346057536232, 0.0
END
# S[1,7]
BEGIN
  0.1428475752252893, 0.0
END
# S[1,8]
BEGIN
  0.1428556426041041, 0.0
END
# S[2,1]
BEGIN
  0.1428556472159244, 0.0
END
# S[2,2]
BEGIN
  0.2143485926771973, 0.0
END
# S[2,3]
BEGIN
  0.2143103253512209, 0.0
END
# S[2,4]
BEGIN
  0.4284854502302551, 0.0
END
# S[2,5]
BEGIN
  -0.1428556612553962, 0.0
END
# S[2,6]
BEGIN
  0.1428556091409519, 0.0
END
# S[2,7]
BEGIN
  0.2143103300986695, 0.0
END
# S[2,8]
BEGIN
  -0.785651438527566, 0.0
END
# S[3,1]
BEGIN
  0.1428475730022569, 0.0
END
# S[3,2]
BEGIN
  0.2143103253517893, 0.0
END
# S[3,3]
BEGIN
  0.2143808370861962, 0.0
END
# S[3,4]
BEGIN
  0.4284612321962413, 0.0
END
# S[3,5]
BEGIN
  -0.1428475870404782, 0.0
END
# S[3,6]
BEGIN
  0.1428475349292171, 0.0
END
# S[3,7]
BEGIN
  -0.7856191360231151, 0.0
END
# S[3,8]
BEGIN
  0.2143103198463905, 0.0
END
# S[4,1]
BEGIN
  0.2856428017987014, 0.0
END
# S[4,2]
BEGIN
  0.428485446177433, 0.0
END
# S[4,3]
BEGIN
  0.4284612281424529, 0.0
END
# S[4,4]
BEGIN
  -0.1425895139930731, 0.0
END
# S[4,5]
BEGIN
  -0.2856428298703975, 0.0
END
# S[4,6]
BEGIN
  0.2856427256669321, 0.0
END
# S[4,7]
BEGIN
  0.4284612376310974, 0.0
END
# S[4,8]
BEGIN
  0.4284854351669765, 0.0
END
# S[5,1]
BEGIN
  0.571345901192359, 0.0
END
# S[5,2]
BEGIN
  -0.1428556603145807, 0.0
END
# S[5,3]
BEGIN
  -0.1428475860998901, 0.0
END
# S[5,4]
BEGIN
  -0.2856428292545274, 0.0
END
# S[5,5]
BEGIN
  0.4286540426573851, 0.0
END
# S[5,6]
BEGIN
  0.571346113685081, 0.0
END
# S[5,7]
BEGIN
  -0.1428475892641075, 0.0
END
# S[5,8]
BEGIN
  -0.1428556566435191, 0.0
END
# S[6,1]
BEGIN
  -0.5713460575357914, 0.0
END
# S[6,2]
BEGIN
  0.1428556082004775, 0.0
END
# S[6,3]
BEGIN
  0.142847533988629, 0.0
END
# S[6,4]
BEGIN
  0.285642725050991, 0.0
END
# S[6,5]
BEGIN
  0.5713461136858342, 0.0
END
# S[6,6]
BEGIN
  0.4286540947429813, 0.0
END
# S[6,7]
BEGIN
  0.1428475371526474, 0.0
END
# S[6,8]
BEGIN
  0.142855604529359, 0.0
END
# S[7,1]
BEGIN
  0.1428475761658206, 0.0
END
# S[7,2]
BEGIN
  0.2143103300975326, 0.0
END
# S[7,3]
BEGIN
  -0.7856191360233424, 0.0
END
# S[7,4]
BEGIN
  0.4284612416843174, 0.0
END
# S[7,5]
BEGIN
  -0.1428475902042692, 0.0
END
# S[7,6]
BEGIN
  0.1428475380931218, 0.0
END
# S[7,7]
BEGIN
  0.2143808465797292, 0.0
END
# S[7,8]
BEGIN
  0.2143103245916791, 0.0
END
# S[8,1]
BEGIN
  0.1428556435445785, 0.0
END
# S[8,2]
BEGIN
  -0.7856514385271112, 0.0
END
# S[8,3]
BEGIN
  0.2143103198457084, 0.0
END
# S[8,4]
BEGIN
  0.4284854392199122, 0.0
END
# S[8,5]
BEGIN
  -0.1428556575842777, 0.0
END
# S[8,6]
BEGIN
  0.1428556054697765, 0.0
END
# S[8,7]
BEGIN
  0.214310324590997, 0.0
END
# S[8,8]
BEGIN
  0.2143485816632165, 0.0
END

# PORTZ[1]
BEGIN
  50, 0.0
END
# PORTZ[2]
BEGIN
  50, 0.0
END
# PORTZ[3]
BEGIN
  50, 0.0
END
# PORTZ[4]
BEGIN
  50, 0.0
END
# PORTZ[5]
BEGIN
  50, 0.0
END
# PORTZ[6]
BEGIN
  50, 0.0
END
# PORTZ[7]
BEGIN
  50, 0.0
END
# PORTZ[8]
BEGIN
  50, 0.0
END

