CITIFILE A.01.01
# File generated on Wed Apr 22 14:10:18 2020

NAME VemEngine -DC E:\Github\youtube-simple-simulations\ADS Simulations\28Pins\simulation\28Pins_Project_V1I1_PCB_lib\28%Pins_%Project_%V1%I1_%P%C%B\sipi%Setup\000002\design.out.electric

CONSTANT NBR_OP_PORTS 8

VAR freq MAG 1

DATA Y[1,1] RI
DATA Y[1,2] RI
DATA Y[1,3] RI
DATA Y[1,4] RI
DATA Y[1,5] RI
DATA Y[1,6] RI
DATA Y[1,7] RI
DATA Y[1,8] RI
DATA Y[2,1] RI
DATA Y[2,2] RI
DATA Y[2,3] RI
DATA Y[2,4] RI
DATA Y[2,5] RI
DATA Y[2,6] RI
DATA Y[2,7] RI
DATA Y[2,8] RI
DATA Y[3,1] RI
DATA Y[3,2] RI
DATA Y[3,3] RI
DATA Y[3,4] RI
DATA Y[3,5] RI
DATA Y[3,6] RI
DATA Y[3,7] RI
DATA Y[3,8] RI
DATA Y[4,1] RI
DATA Y[4,2] RI
DATA Y[4,3] RI
DATA Y[4,4] RI
DATA Y[4,5] RI
DATA Y[4,6] RI
DATA Y[4,7] RI
DATA Y[4,8] RI
DATA Y[5,1] RI
DATA Y[5,2] RI
DATA Y[5,3] RI
DATA Y[5,4] RI
DATA Y[5,5] RI
DATA Y[5,6] RI
DATA Y[5,7] RI
DATA Y[5,8] RI
DATA Y[6,1] RI
DATA Y[6,2] RI
DATA Y[6,3] RI
DATA Y[6,4] RI
DATA Y[6,5] RI
DATA Y[6,6] RI
DATA Y[6,7] RI
DATA Y[6,8] RI
DATA Y[7,1] RI
DATA Y[7,2] RI
DATA Y[7,3] RI
DATA Y[7,4] RI
DATA Y[7,5] RI
DATA Y[7,6] RI
DATA Y[7,7] RI
DATA Y[7,8] RI
DATA Y[8,1] RI
DATA Y[8,2] RI
DATA Y[8,3] RI
DATA Y[8,4] RI
DATA Y[8,5] RI
DATA Y[8,6] RI
DATA Y[8,7] RI
DATA Y[8,8] RI
DATA S[1,1] RI
DATA S[1,2] RI
DATA S[1,3] RI
DATA S[1,4] RI
DATA S[1,5] RI
DATA S[1,6] RI
DATA S[1,7] RI
DATA S[1,8] RI
DATA S[2,1] RI
DATA S[2,2] RI
DATA S[2,3] RI
DATA S[2,4] RI
DATA S[2,5] RI
DATA S[2,6] RI
DATA S[2,7] RI
DATA S[2,8] RI
DATA S[3,1] RI
DATA S[3,2] RI
DATA S[3,3] RI
DATA S[3,4] RI
DATA S[3,5] RI
DATA S[3,6] RI
DATA S[3,7] RI
DATA S[3,8] RI
DATA S[4,1] RI
DATA S[4,2] RI
DATA S[4,3] RI
DATA S[4,4] RI
DATA S[4,5] RI
DATA S[4,6] RI
DATA S[4,7] RI
DATA S[4,8] RI
DATA S[5,1] RI
DATA S[5,2] RI
DATA S[5,3] RI
DATA S[5,4] RI
DATA S[5,5] RI
DATA S[5,6] RI
DATA S[5,7] RI
DATA S[5,8] RI
DATA S[6,1] RI
DATA S[6,2] RI
DATA S[6,3] RI
DATA S[6,4] RI
DATA S[6,5] RI
DATA S[6,6] RI
DATA S[6,7] RI
DATA S[6,8] RI
DATA S[7,1] RI
DATA S[7,2] RI
DATA S[7,3] RI
DATA S[7,4] RI
DATA S[7,5] RI
DATA S[7,6] RI
DATA S[7,7] RI
DATA S[7,8] RI
DATA S[8,1] RI
DATA S[8,2] RI
DATA S[8,3] RI
DATA S[8,4] RI
DATA S[8,5] RI
DATA S[8,6] RI
DATA S[8,7] RI
DATA S[8,8] RI
DATA PORTZ[1] RI
DATA PORTZ[2] RI
DATA PORTZ[3] RI
DATA PORTZ[4] RI
DATA PORTZ[5] RI
DATA PORTZ[6] RI
DATA PORTZ[7] RI
DATA PORTZ[8] RI

VAR_LIST_BEGIN
  0
VAR_LIST_END

# Y[1,1]
BEGIN
  42.40747220710831, 0.0
END
# Y[1,2]
BEGIN
  -24.80419343903926, 0.0
END
# Y[1,3]
BEGIN
  -7.846113385986631, 0.0
END
# Y[1,4]
BEGIN
  -9.75716509668662, 0.0
END
# Y[1,5]
BEGIN
  -42.40747220631938, 0.0
END
# Y[1,6]
BEGIN
  42.40747220711677, 0.0
END
# Y[1,7]
BEGIN
  -7.846113386118928, 0.0
END
# Y[1,8]
BEGIN
  -24.80419343895174, 0.0
END
# Y[2,1]
BEGIN
  -24.80402786556018, 0.0
END
# Y[2,2]
BEGIN
  133.9792857887685, 0.0
END
# Y[2,3]
BEGIN
  -78.62255114365311, 0.0
END
# Y[2,4]
BEGIN
  -30.55270726295509, 0.0
END
# Y[2,5]
BEGIN
  24.80402786570219, 0.0
END
# Y[2,6]
BEGIN
  -24.80402786535292, 0.0
END
# Y[2,7]
BEGIN
  -78.62255114383527, 0.0
END
# Y[2,8]
BEGIN
  133.9792857893969, 0.0
END
# Y[3,1]
BEGIN
  -7.846060948882062, 0.0
END
# Y[3,2]
BEGIN
  -78.62255121511589, 0.0
END
# Y[3,3]
BEGIN
  96.13310703193562, 0.0
END
# Y[3,4]
BEGIN
  -9.664495020153877, 0.0
END
# Y[3,5]
BEGIN
  7.846060948926983, 0.0
END
# Y[3,6]
BEGIN
  -7.846060948816496, 0.0
END
# Y[3,7]
BEGIN
  96.13310703100947, 0.0
END
# Y[3,8]
BEGIN
  -78.62255121506409, 0.0
END
# Y[4,1]
BEGIN
  -9.757383392654617, 0.0
END
# Y[4,2]
BEGIN
  -30.55254113423877, 0.0
END
# Y[4,3]
BEGIN
  -9.664442501380737, 0.0
END
# Y[4,4]
BEGIN
  49.97436737916354, 0.0
END
# Y[4,5]
BEGIN
  9.757383392710491, 0.0
END
# Y[4,6]
BEGIN
  -9.757383392573072, 0.0
END
# Y[4,7]
BEGIN
  -9.664442501437176, 0.0
END
# Y[4,8]
BEGIN
  -30.55254113419742, 0.0
END
# Y[5,1]
BEGIN
  -42.40747220631982, 0.0
END
# Y[5,2]
BEGIN
  24.80419343918152, 0.0
END
# Y[5,3]
BEGIN
  7.846113386031631, 0.0
END
# Y[5,4]
BEGIN
  9.757165096742581, 0.0
END
# Y[5,5]
BEGIN
  42.40747220656261, 0.0
END
# Y[5,6]
BEGIN
  -42.40747220736, 0.0
END
# Y[5,7]
BEGIN
  7.846113386163925, 0.0
END
# Y[5,8]
BEGIN
  24.80419343909401, 0.0
END
# Y[6,1]
BEGIN
  42.40747220711661, 0.0
END
# Y[6,2]
BEGIN
  -24.80419343883189, 0.0
END
# Y[6,3]
BEGIN
  -7.846113385921035, 0.0
END
# Y[6,4]
BEGIN
  -9.757165096605039, 0.0
END
# Y[6,5]
BEGIN
  -42.4074722073594, 0.0
END
# Y[6,6]
BEGIN
  42.40747220676223, 0.0
END
# Y[6,7]
BEGIN
  -7.84611338605333, 0.0
END
# Y[6,8]
BEGIN
  -24.80419343874437, 0.0
END
# Y[7,1]
BEGIN
  -7.846060949013774, 0.0
END
# Y[7,2]
BEGIN
  -78.62255121529851, 0.0
END
# Y[7,3]
BEGIN
  96.13310703100944, 0.0
END
# Y[7,4]
BEGIN
  -9.664495020210399, 0.0
END
# Y[7,5]
BEGIN
  7.846060949058698, 0.0
END
# Y[7,6]
BEGIN
  -7.84606094894821, 0.0
END
# Y[7,7]
BEGIN
  96.13310703138031, 0.0
END
# Y[7,8]
BEGIN
  -78.62255121524673, 0.0
END
# Y[8,1]
BEGIN
  -24.80402786547301, 0.0
END
# Y[8,2]
BEGIN
  133.979285789397, 0.0
END
# Y[8,3]
BEGIN
  -78.62255114360117, 0.0
END
# Y[8,4]
BEGIN
  -30.55270726291365, 0.0
END
# Y[8,5]
BEGIN
  24.80402786561502, 0.0
END
# Y[8,6]
BEGIN
  -24.80402786526574, 0.0
END
# Y[8,7]
BEGIN
  -78.62255114378331, 0.0
END
# Y[8,8]
BEGIN
  133.9792857892164, 0.0
END

# S[1,1]
BEGIN
  0.4286539684179616, 0.0
END
# S[1,2]
BEGIN
  0.142855643924122, 0.0
END
# S[1,3]
BEGIN
  0.1428475656049955, 0.0
END
# S[1,4]
BEGIN
  0.2856427943718245, 0.0
END
# S[1,5]
BEGIN
  0.5713459578863224, 0.0
END
# S[1,6]
BEGIN
  -0.5713460176567652, 0.0
END
# S[1,7]
BEGIN
  0.1428475748708991, 0.0
END
# S[1,8]
BEGIN
  0.1428556381440558, 0.0
END
# S[2,1]
BEGIN
  0.1428556448645395, 0.0
END
# S[2,2]
BEGIN
  0.2143486075365217, 0.0
END
# S[2,3]
BEGIN
  0.2143103266760136, 0.0
END
# S[2,4]
BEGIN
  0.428485462027993, 0.0
END
# S[2,5]
BEGIN
  -0.1428556522347435, 0.0
END
# S[2,6]
BEGIN
  0.1428556323113526, 0.0
END
# S[2,7]
BEGIN
  0.2143103405752527, 0.0
END
# S[2,8]
BEGIN
  -0.7856514415848324, 0.0
END
# S[3,1]
BEGIN
  0.1428475665455267, 0.0
END
# S[3,2]
BEGIN
  0.2143103266766957, 0.0
END
# S[3,3]
BEGIN
  0.2143808108987741, 0.0
END
# S[3,4]
BEGIN
  0.4284612316804441, 0.0
END
# S[3,5]
BEGIN
  -0.1428475739153328, 0.0
END
# S[3,6]
BEGIN
  0.1428475539921692, 0.0
END
# S[3,7]
BEGIN
  -0.7856191103514334, 0.0
END
# S[3,8]
BEGIN
  0.2143103180073922, 0.0
END
# S[4,1]
BEGIN
  0.2856427949874814, 0.0
END
# S[4,2]
BEGIN
  0.4284854579743751, 0.0
END
# S[4,3]
BEGIN
  0.4284612276273378, 0.0
END
# S[4,4]
BEGIN
  -0.1425894967294994, 0.0
END
# S[4,5]
BEGIN
  -0.2856428097249619, 0.0
END
# S[4,6]
BEGIN
  0.2856427698859818, 0.0
END
# S[4,7]
BEGIN
  0.4284612554157263, 0.0
END
# S[4,8]
BEGIN
  0.4284854406403156, 0.0
END
# S[5,1]
BEGIN
  0.5713459578864786, 0.0
END
# S[5,2]
BEGIN
  -0.1428556512939281, 0.0
END
# S[5,3]
BEGIN
  -0.1428475729749437, 0.0
END
# S[5,4]
BEGIN
  -0.2856428091086514, 0.0
END
# S[5,5]
BEGIN
  0.4286540126371818, 0.0
END
# S[5,6]
BEGIN
  0.571346047134071, 0.0
END
# S[5,7]
BEGIN
  -0.1428475822404494, 0.0
END
# S[5,8]
BEGIN
  -0.1428556455146008, 0.0
END
# S[6,1]
BEGIN
  -0.5713460176571772, 0.0
END
# S[6,2]
BEGIN
  0.142855631369855, 0.0
END
# S[6,3]
BEGIN
  0.1428475530517233, 0.0
END
# S[6,4]
BEGIN
  0.2856427692698276, 0.0
END
# S[6,5]
BEGIN
  0.5713460471336305, 0.0
END
# S[6,6]
BEGIN
  0.4286540325524868, 0.0
END
# S[6,7]
BEGIN
  0.1428475623175132, 0.0
END
# S[6,8]
BEGIN
  0.1428556255901867, 0.0
END
# S[7,1]
BEGIN
  0.1428475758111745, 0.0
END
# S[7,2]
BEGIN
  0.2143103405744569, 0.0
END
# S[7,3]
BEGIN
  -0.7856191103511492, 0.0
END
# S[7,4]
BEGIN
  0.4284612594694863, 0.0
END
# S[7,5]
BEGIN
  -0.1428475831814922, 0.0
END
# S[7,6]
BEGIN
  0.1428475632583854, 0.0
END
# S[7,7]
BEGIN
  0.2143808386971955, 0.0
END
# S[7,8]
BEGIN
  0.214310331906745, 0.0
END
# S[8,1]
BEGIN
  0.1428556390844733, 0.0
END
# S[8,2]
BEGIN
  -0.7856514415852871, 0.0
END
# S[8,3]
BEGIN
  0.2143103180070511, 0.0
END
# S[8,4]
BEGIN
  0.4284854446934787, 0.0
END
# S[8,5]
BEGIN
  -0.1428556464553026, 0.0
END
# S[8,6]
BEGIN
  0.1428556265304337, 0.0
END
# S[8,7]
BEGIN
  0.2143103319056081, 0.0
END
# S[8,8]
BEGIN
  0.21434859019746, 0.0
END

# PORTZ[1]
BEGIN
  50, 0.0
END
# PORTZ[2]
BEGIN
  50, 0.0
END
# PORTZ[3]
BEGIN
  50, 0.0
END
# PORTZ[4]
BEGIN
  50, 0.0
END
# PORTZ[5]
BEGIN
  50, 0.0
END
# PORTZ[6]
BEGIN
  50, 0.0
END
# PORTZ[7]
BEGIN
  50, 0.0
END
# PORTZ[8]
BEGIN
  50, 0.0
END

