CITIFILE A.01.01
# File generated on Tue Apr 21 11:15:54 2020

NAME VemEngine -DC E:\Github\youtube-simple-simulations\ADS Simulations\Simple_Simulations_wrk\simulation\28Pins_Project_V1I1_PCB_lib\28%Pins_%Project_%V1%I1_%P%C%B\sipi%Setup\000001\design.out.electric

CONSTANT NBR_OP_PORTS 8

VAR freq MAG 1

DATA Y[1,1] RI
DATA Y[1,2] RI
DATA Y[1,3] RI
DATA Y[1,4] RI
DATA Y[1,5] RI
DATA Y[1,6] RI
DATA Y[1,7] RI
DATA Y[1,8] RI
DATA Y[2,1] RI
DATA Y[2,2] RI
DATA Y[2,3] RI
DATA Y[2,4] RI
DATA Y[2,5] RI
DATA Y[2,6] RI
DATA Y[2,7] RI
DATA Y[2,8] RI
DATA Y[3,1] RI
DATA Y[3,2] RI
DATA Y[3,3] RI
DATA Y[3,4] RI
DATA Y[3,5] RI
DATA Y[3,6] RI
DATA Y[3,7] RI
DATA Y[3,8] RI
DATA Y[4,1] RI
DATA Y[4,2] RI
DATA Y[4,3] RI
DATA Y[4,4] RI
DATA Y[4,5] RI
DATA Y[4,6] RI
DATA Y[4,7] RI
DATA Y[4,8] RI
DATA Y[5,1] RI
DATA Y[5,2] RI
DATA Y[5,3] RI
DATA Y[5,4] RI
DATA Y[5,5] RI
DATA Y[5,6] RI
DATA Y[5,7] RI
DATA Y[5,8] RI
DATA Y[6,1] RI
DATA Y[6,2] RI
DATA Y[6,3] RI
DATA Y[6,4] RI
DATA Y[6,5] RI
DATA Y[6,6] RI
DATA Y[6,7] RI
DATA Y[6,8] RI
DATA Y[7,1] RI
DATA Y[7,2] RI
DATA Y[7,3] RI
DATA Y[7,4] RI
DATA Y[7,5] RI
DATA Y[7,6] RI
DATA Y[7,7] RI
DATA Y[7,8] RI
DATA Y[8,1] RI
DATA Y[8,2] RI
DATA Y[8,3] RI
DATA Y[8,4] RI
DATA Y[8,5] RI
DATA Y[8,6] RI
DATA Y[8,7] RI
DATA Y[8,8] RI
DATA S[1,1] RI
DATA S[1,2] RI
DATA S[1,3] RI
DATA S[1,4] RI
DATA S[1,5] RI
DATA S[1,6] RI
DATA S[1,7] RI
DATA S[1,8] RI
DATA S[2,1] RI
DATA S[2,2] RI
DATA S[2,3] RI
DATA S[2,4] RI
DATA S[2,5] RI
DATA S[2,6] RI
DATA S[2,7] RI
DATA S[2,8] RI
DATA S[3,1] RI
DATA S[3,2] RI
DATA S[3,3] RI
DATA S[3,4] RI
DATA S[3,5] RI
DATA S[3,6] RI
DATA S[3,7] RI
DATA S[3,8] RI
DATA S[4,1] RI
DATA S[4,2] RI
DATA S[4,3] RI
DATA S[4,4] RI
DATA S[4,5] RI
DATA S[4,6] RI
DATA S[4,7] RI
DATA S[4,8] RI
DATA S[5,1] RI
DATA S[5,2] RI
DATA S[5,3] RI
DATA S[5,4] RI
DATA S[5,5] RI
DATA S[5,6] RI
DATA S[5,7] RI
DATA S[5,8] RI
DATA S[6,1] RI
DATA S[6,2] RI
DATA S[6,3] RI
DATA S[6,4] RI
DATA S[6,5] RI
DATA S[6,6] RI
DATA S[6,7] RI
DATA S[6,8] RI
DATA S[7,1] RI
DATA S[7,2] RI
DATA S[7,3] RI
DATA S[7,4] RI
DATA S[7,5] RI
DATA S[7,6] RI
DATA S[7,7] RI
DATA S[7,8] RI
DATA S[8,1] RI
DATA S[8,2] RI
DATA S[8,3] RI
DATA S[8,4] RI
DATA S[8,5] RI
DATA S[8,6] RI
DATA S[8,7] RI
DATA S[8,8] RI
DATA PORTZ[1] RI
DATA PORTZ[2] RI
DATA PORTZ[3] RI
DATA PORTZ[4] RI
DATA PORTZ[5] RI
DATA PORTZ[6] RI
DATA PORTZ[7] RI
DATA PORTZ[8] RI

VAR_LIST_BEGIN
  0
VAR_LIST_END

# Y[1,1]
BEGIN
  42.40747220738557, 0.0
END
# Y[1,2]
BEGIN
  -24.80419343898674, 0.0
END
# Y[1,3]
BEGIN
  -7.846113386161492, 0.0
END
# Y[1,4]
BEGIN
  -9.757165096698653, 0.0
END
# Y[1,5]
BEGIN
  -42.40747220563199, 0.0
END
# Y[1,6]
BEGIN
  42.40747220726409, 0.0
END
# Y[1,7]
BEGIN
  -7.846113386260166, 0.0
END
# Y[1,8]
BEGIN
  -24.80419343893177, 0.0
END
# Y[2,1]
BEGIN
  -24.80402786560127, 0.0
END
# Y[2,2]
BEGIN
  133.9792857878231, 0.0
END
# Y[2,3]
BEGIN
  -78.62255114313143, 0.0
END
# Y[2,4]
BEGIN
  -30.55270726294128, 0.0
END
# Y[2,5]
BEGIN
  24.80402786584301, 0.0
END
# Y[2,6]
BEGIN
  -24.80402786518385, 0.0
END
# Y[2,7]
BEGIN
  -78.62255114334182, 0.0
END
# Y[2,8]
BEGIN
  133.9792857882429, 0.0
END
# Y[3,1]
BEGIN
  -7.846060948982771, 0.0
END
# Y[3,2]
BEGIN
  -78.62255121466715, 0.0
END
# Y[3,3]
BEGIN
  96.1331070310345, 0.0
END
# Y[3,4]
BEGIN
  -9.664495020227175, 0.0
END
# Y[3,5]
BEGIN
  7.846060949059233, 0.0
END
# Y[3,6]
BEGIN
  -7.846060948850718, 0.0
END
# Y[3,7]
BEGIN
  96.13310703050971, 0.0
END
# Y[3,8]
BEGIN
  -78.62255121463973, 0.0
END
# Y[4,1]
BEGIN
  -9.757383392646805, 0.0
END
# Y[4,2]
BEGIN
  -30.5525411342458, 0.0
END
# Y[4,3]
BEGIN
  -9.664442501452921, 0.0
END
# Y[4,4]
BEGIN
  49.97436737917337, 0.0
END
# Y[4,5]
BEGIN
  9.757383392741895, 0.0
END
# Y[4,6]
BEGIN
  -9.757383392482598, 0.0
END
# Y[4,7]
BEGIN
  -9.664442501501952, 0.0
END
# Y[4,8]
BEGIN
  -30.55254113422133, 0.0
END
# Y[5,1]
BEGIN
  -42.40747220563296, 0.0
END
# Y[5,2]
BEGIN
  24.80419343922904, 0.0
END
# Y[5,3]
BEGIN
  7.846113386238139, 0.0
END
# Y[5,4]
BEGIN
  9.757165096793962, 0.0
END
# Y[5,5]
BEGIN
  42.40747220604625, 0.0
END
# Y[5,6]
BEGIN
  -42.40747220767835, 0.0
END
# Y[5,7]
BEGIN
  7.846113386336811, 0.0
END
# Y[5,8]
BEGIN
  24.80419343917407, 0.0
END
# Y[6,1]
BEGIN
  42.40747220726389, 0.0
END
# Y[6,2]
BEGIN
  -24.80419343856919, 0.0
END
# Y[6,3]
BEGIN
  -7.846113386029418, 0.0
END
# Y[6,4]
BEGIN
  -9.757165096534401, 0.0
END
# Y[6,5]
BEGIN
  -42.40747220767719, 0.0
END
# Y[6,6]
BEGIN
  42.40747220655021, 0.0
END
# Y[6,7]
BEGIN
  -7.846113386128091, 0.0
END
# Y[6,8]
BEGIN
  -24.80419343851421, 0.0
END
# Y[7,1]
BEGIN
  -7.84606094908105, 0.0
END
# Y[7,2]
BEGIN
  -78.62255121487786, 0.0
END
# Y[7,3]
BEGIN
  96.13310703050972, 0.0
END
# Y[7,4]
BEGIN
  -9.664495020276275, 0.0
END
# Y[7,5]
BEGIN
  7.846060949157513, 0.0
END
# Y[7,6]
BEGIN
  -7.846060948948998, 0.0
END
# Y[7,7]
BEGIN
  96.13310703086779, 0.0
END
# Y[7,8]
BEGIN
  -78.62255121485047, 0.0
END
# Y[8,1]
BEGIN
  -24.80402786554651, 0.0
END
# Y[8,2]
BEGIN
  133.979285788243, 0.0
END
# Y[8,3]
BEGIN
  -78.62255114310393, 0.0
END
# Y[8,4]
BEGIN
  -30.55270726291675, 0.0
END
# Y[8,5]
BEGIN
  24.80402786578826, 0.0
END
# Y[8,6]
BEGIN
  -24.80402786512909, 0.0
END
# Y[8,7]
BEGIN
  -78.62255114331431, 0.0
END
# Y[8,8]
BEGIN
  133.9792857881361, 0.0
END

# S[1,1]
BEGIN
  0.4286539369274749, 0.0
END
# S[1,2]
BEGIN
  0.1428556475231062, 0.0
END
# S[1,3]
BEGIN
  0.1428475716923572, 0.0
END
# S[1,4]
BEGIN
  0.2856428035852332, 0.0
END
# S[1,5]
BEGIN
  0.5713459082924572, 0.0
END
# S[1,6]
BEGIN
  -0.5713460265454984, 0.0
END
# S[1,7]
BEGIN
  0.1428475779997314, 0.0
END
# S[1,8]
BEGIN
  0.1428556437617772, 0.0
END
# S[2,1]
BEGIN
  0.1428556484642627, 0.0
END
# S[2,2]
BEGIN
  0.2143486027243853, 0.0
END
# S[2,3]
BEGIN
  0.2143103326549181, 0.0
END
# S[2,4]
BEGIN
  0.4284854695461036, 0.0
END
# S[2,5]
BEGIN
  -0.1428556639427825, 0.0
END
# S[2,6]
BEGIN
  0.1428556245241452, 0.0
END
# S[2,7]
BEGIN
  0.214310342117642, 0.0
END
# S[2,8]
BEGIN
  -0.7856514292511748, 0.0
END
# S[3,1]
BEGIN
  0.1428475726330589, 0.0
END
# S[3,2]
BEGIN
  0.2143103326577602, 0.0
END
# S[3,3]
BEGIN
  0.2143808309659221, 0.0
END
# S[3,4]
BEGIN
  0.4284612466612998, 0.0
END
# S[3,5]
BEGIN
  -0.1428475881111808, 0.0
END
# S[3,6]
BEGIN
  0.1428475486943626, 0.0
END
# S[3,7]
BEGIN
  -0.7856191154301656, 0.0
END
# S[3,8]
BEGIN
  0.2143103270122992, 0.0
END
# S[4,1]
BEGIN
  0.2856428042012454, 0.0
END
# S[4,2]
BEGIN
  0.4284854654931678, 0.0
END
# S[4,3]
BEGIN
  0.4284612426083357, 0.0
END
# S[4,4]
BEGIN
  -0.142589475648208, 0.0
END
# S[4,5]
BEGIN
  -0.2856428351517906, 0.0
END
# S[4,6]
BEGIN
  0.2856427563329902, 0.0
END
# S[4,7]
BEGIN
  0.4284612615240064, 0.0
END
# S[4,8]
BEGIN
  0.4284854542107723, 0.0
END
# S[5,1]
BEGIN
  0.5713459082919742, 0.0
END
# S[5,2]
BEGIN
  -0.1428556630024218, 0.0
END
# S[5,3]
BEGIN
  -0.1428475871703654, 0.0
END
# S[5,4]
BEGIN
  -0.2856428345356221, 0.0
END
# S[5,5]
BEGIN
  0.4286540298005406, 0.0
END
# S[5,6]
BEGIN
  0.5713460884533106, 0.0
END
# S[5,7]
BEGIN
  -0.1428475934775975, 0.0
END
# S[5,8]
BEGIN
  -0.1428556592398991, 0.0
END
# S[6,1]
BEGIN
  -0.5713460265460952, 0.0
END
# S[6,2]
BEGIN
  0.1428556235835572, 0.0
END
# S[6,3]
BEGIN
  0.142847547753945, 0.0
END
# S[6,4]
BEGIN
  0.285642755717106, 0.0
END
# S[6,5]
BEGIN
  0.5713460884531543, 0.0
END
# S[6,6]
BEGIN
  0.4286540692010732, 0.0
END
# S[6,7]
BEGIN
  0.142847554061234, 0.0
END
# S[6,8]
BEGIN
  0.1428556198213755, 0.0
END
# S[7,1]
BEGIN
  0.1428475789403478, 0.0
END
# S[7,2]
BEGIN
  0.2143103421162778, 0.0
END
# S[7,3]
BEGIN
  -0.7856191154298244, 0.0
END
# S[7,4]
BEGIN
  0.4284612655777664, 0.0
END
# S[7,5]
BEGIN
  -0.1428475944186971, 0.0
END
# S[7,6]
BEGIN
  0.1428475550017652, 0.0
END
# S[7,7]
BEGIN
  0.2143808498871636, 0.0
END
# S[7,8]
BEGIN
  0.2143103364755916, 0.0
END
# S[8,1]
BEGIN
  0.1428556447014557, 0.0
END
# S[8,2]
BEGIN
  -0.7856514292502652, 0.0
END
# S[8,3]
BEGIN
  0.2143103270125266, 0.0
END
# S[8,4]
BEGIN
  0.4284854582635944, 0.0
END
# S[8,5]
BEGIN
  -0.1428556601809419, 0.0
END
# S[8,6]
BEGIN
  0.1428556207619636, 0.0
END
# S[8,7]
BEGIN
  0.2143103364741137, 0.0
END
# S[8,8]
BEGIN
  0.2143485914371013, 0.0
END

# PORTZ[1]
BEGIN
  50, 0.0
END
# PORTZ[2]
BEGIN
  50, 0.0
END
# PORTZ[3]
BEGIN
  50, 0.0
END
# PORTZ[4]
BEGIN
  50, 0.0
END
# PORTZ[5]
BEGIN
  50, 0.0
END
# PORTZ[6]
BEGIN
  50, 0.0
END
# PORTZ[7]
BEGIN
  50, 0.0
END
# PORTZ[8]
BEGIN
  50, 0.0
END

